Sample in Buffer,Sample in Window,TRIGGER,design_1_i/compute_sad_0/inst/compute_sad_v1_0_S00_AXI_inst/P_next[4:0],design_1_i/compute_sad_0/inst/compute_sad_v1_0_S00_AXI_inst/P[4:0],u_ila_0_index[15:0],design_1_i/compute_sad_0/inst/compute_sad_v1_0_S00_AXI_inst/index[31:16]
0,0,1,01,01,0001,0000
1,1,0,02,01,0002,0000
2,2,0,02,02,0003,0000
3,3,0,03,02,0004,0000
4,4,0,04,03,0005,0000
5,5,0,05,04,0006,0000
6,6,0,06,05,0007,0000
7,7,0,01,06,0008,0000
8,8,0,02,01,0009,0000
9,9,0,03,02,000a,0000
10,10,0,04,03,000b,0000
11,11,0,05,04,000c,0000
12,12,0,06,05,000d,0000
13,13,0,01,06,000e,0000
14,14,0,02,01,000f,0000
15,15,0,03,02,0010,0000
16,16,0,04,03,0011,0000
17,17,0,05,04,0012,0000
18,18,0,06,05,0013,0000
19,19,0,01,06,0014,0000
20,20,0,02,01,0015,0000
21,21,0,03,02,0016,0000
22,22,0,04,03,0017,0000
23,23,0,05,04,0018,0000
24,24,0,06,05,0019,0000
25,25,0,07,06,001a,0000
26,26,0,08,07,001b,0000
27,27,0,00,08,001c,0000
28,28,0,00,00,0000,0000
29,29,0,00,00,0000,0000
30,30,0,00,00,0000,0000
31,31,0,00,00,0000,0000
32,32,0,00,00,0000,0000
33,33,0,00,00,0000,0000
34,34,0,00,00,0000,0000
35,35,0,00,00,0000,0000
36,36,0,00,00,0000,0000
37,37,0,00,00,0000,0000
38,38,0,00,00,0000,0000
39,39,0,00,00,0000,0000
40,40,0,00,00,0000,0000
41,41,0,00,00,0000,0000
42,42,0,00,00,0000,0000
43,43,0,00,00,0000,0000
44,44,0,00,00,0000,0000
45,45,0,00,00,0000,0000
46,46,0,00,00,0000,0000
47,47,0,00,00,0000,0000
48,48,0,00,00,0000,0000
49,49,0,00,00,0000,0000
50,50,0,00,00,0000,0000
51,51,0,00,00,0000,0000
52,52,0,00,00,0000,0000
53,53,0,00,00,0000,0000
54,54,0,00,00,0000,0000
55,55,0,00,00,0000,0000
56,56,0,00,00,0000,0000
57,57,0,00,00,0000,0000
58,58,0,00,00,0000,0000
59,59,0,00,00,0000,0000
60,60,0,00,00,0000,0000
61,61,0,00,00,0000,0000
62,62,0,00,00,0000,0000
63,63,0,00,00,0000,0000
64,64,0,00,00,0000,0000
65,65,0,00,00,0000,0000
66,66,0,00,00,0000,0000
67,67,0,00,00,0000,0000
68,68,0,00,00,0000,0000
69,69,0,00,00,0000,0000
70,70,0,00,00,0000,0000
71,71,0,00,00,0000,0000
72,72,0,00,00,0000,0000
73,73,0,00,00,0000,0000
74,74,0,00,00,0000,0000
75,75,0,00,00,0000,0000
76,76,0,00,00,0000,0000
77,77,0,00,00,0000,0000
78,78,0,00,00,0000,0000
79,79,0,00,00,0000,0000
80,80,0,00,00,0000,0000
81,81,0,00,00,0000,0000
82,82,0,00,00,0000,0000
83,83,0,00,00,0000,0000
84,84,0,00,00,0000,0000
85,85,0,00,00,0000,0000
86,86,0,00,00,0000,0000
87,87,0,00,00,0000,0000
88,88,0,00,00,0000,0000
89,89,0,00,00,0000,0000
90,90,0,00,00,0000,0000
91,91,0,00,00,0000,0000
92,92,0,00,00,0000,0000
93,93,0,00,00,0000,0000
94,94,0,00,00,0000,0000
95,95,0,00,00,0000,0000
96,96,0,00,00,0000,0000
97,97,0,00,00,0000,0000
98,98,0,00,00,0000,0000
99,99,0,00,00,0000,0000
100,100,0,00,00,0000,0000
101,101,0,00,00,0000,0000
102,102,0,00,00,0000,0000
103,103,0,00,00,0000,0000
104,104,0,00,00,0000,0000
105,105,0,00,00,0000,0000
106,106,0,00,00,0000,0000
107,107,0,00,00,0000,0000
108,108,0,00,00,0000,0000
109,109,0,00,00,0000,0000
110,110,0,00,00,0000,0000
111,111,0,00,00,0000,0000
112,112,0,00,00,0000,0000
113,113,0,00,00,0000,0000
114,114,0,00,00,0000,0000
115,115,0,00,00,0000,0000
116,116,0,00,00,0000,0000
117,117,0,00,00,0000,0000
118,118,0,00,00,0000,0000
119,119,0,00,00,0000,0000
120,120,0,00,00,0000,0000
121,121,0,00,00,0000,0000
122,122,0,00,00,0000,0000
123,123,0,00,00,0000,0000
124,124,0,00,00,0000,0000
125,125,0,00,00,0000,0000
126,126,0,00,00,0000,0000
127,127,0,00,00,0000,0000
128,128,0,00,00,0000,0000
129,129,0,00,00,0000,0000
130,130,0,00,00,0000,0000
131,131,0,00,00,0000,0000
132,132,0,00,00,0000,0000
133,133,0,00,00,0000,0000
134,134,0,00,00,0000,0000
135,135,0,00,00,0000,0000
136,136,0,00,00,0000,0000
137,137,0,00,00,0000,0000
138,138,0,00,00,0000,0000
139,139,0,00,00,0000,0000
140,140,0,00,00,0000,0000
141,141,0,00,00,0000,0000
142,142,0,00,00,0000,0000
143,143,0,00,00,0000,0000
144,144,0,00,00,0000,0000
145,145,0,00,00,0000,0000
146,146,0,00,00,0000,0000
147,147,0,00,00,0000,0000
148,148,0,00,00,0000,0000
149,149,0,00,00,0000,0000
150,150,0,00,00,0000,0000
151,151,0,00,00,0000,0000
152,152,0,00,00,0000,0000
153,153,0,00,00,0000,0000
154,154,0,00,00,0000,0000
155,155,0,00,00,0000,0000
156,156,0,00,00,0000,0000
157,157,0,00,00,0000,0000
158,158,0,00,00,0000,0000
159,159,0,00,00,0000,0000
160,160,0,00,00,0000,0000
161,161,0,00,00,0000,0000
162,162,0,00,00,0000,0000
163,163,0,00,00,0000,0000
164,164,0,00,00,0000,0000
165,165,0,00,00,0000,0000
166,166,0,00,00,0000,0000
167,167,0,00,00,0000,0000
168,168,0,00,00,0000,0000
169,169,0,00,00,0000,0000
170,170,0,00,00,0000,0000
171,171,0,00,00,0000,0000
172,172,0,00,00,0000,0000
173,173,0,00,00,0000,0000
174,174,0,00,00,0000,0000
175,175,0,00,00,0000,0000
176,176,0,00,00,0000,0000
177,177,0,00,00,0000,0000
178,178,0,00,00,0000,0000
179,179,0,00,00,0000,0000
180,180,0,00,00,0000,0000
181,181,0,00,00,0000,0000
182,182,0,00,00,0000,0000
183,183,0,00,00,0000,0000
184,184,0,00,00,0000,0000
185,185,0,00,00,0000,0000
186,186,0,00,00,0000,0000
187,187,0,00,00,0000,0000
188,188,0,00,00,0000,0000
189,189,0,00,00,0000,0000
190,190,0,00,00,0000,0000
191,191,0,00,00,0000,0000
192,192,0,00,00,0000,0000
193,193,0,00,00,0000,0000
194,194,0,00,00,0000,0000
195,195,0,00,00,0000,0000
196,196,0,00,00,0000,0000
197,197,0,00,00,0000,0000
198,198,0,00,00,0000,0000
199,199,0,00,00,0000,0000
200,200,0,00,00,0000,0000
201,201,0,00,00,0000,0000
202,202,0,00,00,0000,0000
203,203,0,00,00,0000,0000
204,204,0,00,00,0000,0000
205,205,0,00,00,0000,0000
206,206,0,00,00,0000,0000
207,207,0,00,00,0000,0000
208,208,0,00,00,0000,0000
209,209,0,00,00,0000,0000
210,210,0,00,00,0000,0000
211,211,0,00,00,0000,0000
212,212,0,00,00,0000,0000
213,213,0,00,00,0000,0000
214,214,0,00,00,0000,0000
215,215,0,00,00,0000,0000
216,216,0,00,00,0000,0000
217,217,0,00,00,0000,0000
218,218,0,00,00,0000,0000
219,219,0,00,00,0000,0000
220,220,0,00,00,0000,0000
221,221,0,00,00,0000,0000
222,222,0,00,00,0000,0000
223,223,0,00,00,0000,0000
224,224,0,00,00,0000,0000
225,225,0,00,00,0000,0000
226,226,0,00,00,0000,0000
227,227,0,00,00,0000,0000
228,228,0,00,00,0000,0000
229,229,0,00,00,0000,0000
230,230,0,00,00,0000,0000
231,231,0,00,00,0000,0000
232,232,0,00,00,0000,0000
233,233,0,00,00,0000,0000
234,234,0,00,00,0000,0000
235,235,0,00,00,0000,0000
236,236,0,00,00,0000,0000
237,237,0,00,00,0000,0000
238,238,0,00,00,0000,0000
239,239,0,00,00,0000,0000
240,240,0,00,00,0000,0000
241,241,0,00,00,0000,0000
242,242,0,00,00,0000,0000
243,243,0,00,00,0000,0000
244,244,0,00,00,0000,0000
245,245,0,00,00,0000,0000
246,246,0,00,00,0000,0000
247,247,0,00,00,0000,0000
248,248,0,00,00,0000,0000
249,249,0,00,00,0000,0000
250,250,0,00,00,0000,0000
251,251,0,00,00,0000,0000
252,252,0,00,00,0000,0000
253,253,0,00,00,0000,0000
254,254,0,00,00,0000,0000
255,255,0,00,00,0000,0000
256,256,0,00,00,0000,0000
257,257,0,00,00,0000,0000
258,258,0,00,00,0000,0000
259,259,0,00,00,0000,0000
260,260,0,00,00,0000,0000
261,261,0,00,00,0000,0000
262,262,0,00,00,0000,0000
263,263,0,00,00,0000,0000
264,264,0,00,00,0000,0000
265,265,0,00,00,0000,0000
266,266,0,00,00,0000,0000
267,267,0,00,00,0000,0000
268,268,0,00,00,0000,0000
269,269,0,00,00,0000,0000
270,270,0,00,00,0000,0000
271,271,0,00,00,0000,0000
272,272,0,00,00,0000,0000
273,273,0,00,00,0000,0000
274,274,0,00,00,0000,0000
275,275,0,00,00,0000,0000
276,276,0,00,00,0000,0000
277,277,0,00,00,0000,0000
278,278,0,00,00,0000,0000
279,279,0,00,00,0000,0000
280,280,0,00,00,0000,0000
281,281,0,00,00,0000,0000
282,282,0,00,00,0000,0000
283,283,0,00,00,0000,0000
284,284,0,00,00,0000,0000
285,285,0,00,00,0000,0000
286,286,0,00,00,0000,0000
287,287,0,00,00,0000,0000
288,288,0,00,00,0000,0000
289,289,0,00,00,0000,0000
290,290,0,00,00,0000,0000
291,291,0,00,00,0000,0000
292,292,0,00,00,0000,0000
293,293,0,00,00,0000,0000
294,294,0,00,00,0000,0000
295,295,0,00,00,0000,0000
296,296,0,00,00,0000,0000
297,297,0,00,00,0000,0000
298,298,0,00,00,0000,0000
299,299,0,00,00,0000,0000
300,300,0,00,00,0000,0000
301,301,0,00,00,0000,0000
302,302,0,00,00,0000,0000
303,303,0,00,00,0000,0000
304,304,0,00,00,0000,0000
305,305,0,00,00,0000,0000
306,306,0,00,00,0000,0000
307,307,0,00,00,0000,0000
308,308,0,00,00,0000,0000
309,309,0,00,00,0000,0000
310,310,0,00,00,0000,0000
311,311,0,00,00,0000,0000
312,312,0,00,00,0000,0000
313,313,0,00,00,0000,0000
314,314,0,00,00,0000,0000
315,315,0,00,00,0000,0000
316,316,0,00,00,0000,0000
317,317,0,00,00,0000,0000
318,318,0,00,00,0000,0000
319,319,0,00,00,0000,0000
320,320,0,00,00,0000,0000
321,321,0,00,00,0000,0000
322,322,0,00,00,0000,0000
323,323,0,00,00,0000,0000
324,324,0,00,00,0000,0000
325,325,0,00,00,0000,0000
326,326,0,00,00,0000,0000
327,327,0,00,00,0000,0000
328,328,0,00,00,0000,0000
329,329,0,00,00,0000,0000
330,330,0,00,00,0000,0000
331,331,0,00,00,0000,0000
332,332,0,00,00,0000,0000
333,333,0,00,00,0000,0000
334,334,0,00,00,0000,0000
335,335,0,00,00,0000,0000
336,336,0,00,00,0000,0000
337,337,0,00,00,0000,0000
338,338,0,00,00,0000,0000
339,339,0,00,00,0000,0000
340,340,0,00,00,0000,0000
341,341,0,00,00,0000,0000
342,342,0,00,00,0000,0000
343,343,0,00,00,0000,0000
344,344,0,00,00,0000,0000
345,345,0,00,00,0000,0000
346,346,0,00,00,0000,0000
347,347,0,00,00,0000,0000
348,348,0,00,00,0000,0000
349,349,0,00,00,0000,0000
350,350,0,00,00,0000,0000
351,351,0,00,00,0000,0000
352,352,0,00,00,0000,0000
353,353,0,00,00,0000,0000
354,354,0,00,00,0000,0000
355,355,0,00,00,0000,0000
356,356,0,00,00,0000,0000
357,357,0,00,00,0000,0000
358,358,0,00,00,0000,0000
359,359,0,00,00,0000,0000
360,360,0,00,00,0000,0000
361,361,0,00,00,0000,0000
362,362,0,00,00,0000,0000
363,363,0,00,00,0000,0000
364,364,0,00,00,0000,0000
365,365,0,00,00,0000,0000
366,366,0,00,00,0000,0000
367,367,0,00,00,0000,0000
368,368,0,00,00,0000,0000
369,369,0,00,00,0000,0000
370,370,0,00,00,0000,0000
371,371,0,00,00,0000,0000
372,372,0,00,00,0000,0000
373,373,0,00,00,0000,0000
374,374,0,00,00,0000,0000
375,375,0,00,00,0000,0000
376,376,0,00,00,0000,0000
377,377,0,00,00,0000,0000
378,378,0,00,00,0000,0000
379,379,0,00,00,0000,0000
380,380,0,00,00,0000,0000
381,381,0,00,00,0000,0000
382,382,0,00,00,0000,0000
383,383,0,00,00,0000,0000
384,384,0,00,00,0000,0000
385,385,0,00,00,0000,0000
386,386,0,00,00,0000,0000
387,387,0,00,00,0000,0000
388,388,0,00,00,0000,0000
389,389,0,00,00,0000,0000
390,390,0,00,00,0000,0000
391,391,0,00,00,0000,0000
392,392,0,00,00,0000,0000
393,393,0,00,00,0000,0000
394,394,0,00,00,0000,0000
395,395,0,00,00,0000,0000
396,396,0,00,00,0000,0000
397,397,0,00,00,0000,0000
398,398,0,00,00,0000,0000
399,399,0,00,00,0000,0000
400,400,0,00,00,0000,0000
401,401,0,00,00,0000,0000
402,402,0,00,00,0000,0000
403,403,0,00,00,0000,0000
404,404,0,00,00,0000,0000
405,405,0,00,00,0000,0000
406,406,0,00,00,0000,0000
407,407,0,00,00,0000,0000
408,408,0,00,00,0000,0000
409,409,0,00,00,0000,0000
410,410,0,00,00,0000,0000
411,411,0,00,00,0000,0000
412,412,0,00,00,0000,0000
413,413,0,00,00,0000,0000
414,414,0,00,00,0000,0000
415,415,0,00,00,0000,0000
416,416,0,00,00,0000,0000
417,417,0,00,00,0000,0000
418,418,0,00,00,0000,0000
419,419,0,00,00,0000,0000
420,420,0,00,00,0000,0000
421,421,0,00,00,0000,0000
422,422,0,00,00,0000,0000
423,423,0,00,00,0000,0000
424,424,0,00,00,0000,0000
425,425,0,00,00,0000,0000
426,426,0,00,00,0000,0000
427,427,0,00,00,0000,0000
428,428,0,00,00,0000,0000
429,429,0,00,00,0000,0000
430,430,0,00,00,0000,0000
431,431,0,00,00,0000,0000
432,432,0,00,00,0000,0000
433,433,0,00,00,0000,0000
434,434,0,00,00,0000,0000
435,435,0,00,00,0000,0000
436,436,0,00,00,0000,0000
437,437,0,00,00,0000,0000
438,438,0,00,00,0000,0000
439,439,0,00,00,0000,0000
440,440,0,00,00,0000,0000
441,441,0,00,00,0000,0000
442,442,0,00,00,0000,0000
443,443,0,00,00,0000,0000
444,444,0,00,00,0000,0000
445,445,0,00,00,0000,0000
446,446,0,00,00,0000,0000
447,447,0,00,00,0000,0000
448,448,0,00,00,0000,0000
449,449,0,00,00,0000,0000
450,450,0,00,00,0000,0000
451,451,0,00,00,0000,0000
452,452,0,00,00,0000,0000
453,453,0,00,00,0000,0000
454,454,0,00,00,0000,0000
455,455,0,00,00,0000,0000
456,456,0,00,00,0000,0000
457,457,0,00,00,0000,0000
458,458,0,00,00,0000,0000
459,459,0,00,00,0000,0000
460,460,0,00,00,0000,0000
461,461,0,00,00,0000,0000
462,462,0,00,00,0000,0000
463,463,0,00,00,0000,0000
464,464,0,00,00,0000,0000
465,465,0,00,00,0000,0000
466,466,0,00,00,0000,0000
467,467,0,00,00,0000,0000
468,468,0,00,00,0000,0000
469,469,0,00,00,0000,0000
470,470,0,00,00,0000,0000
471,471,0,00,00,0000,0000
472,472,0,00,00,0000,0000
473,473,0,00,00,0000,0000
474,474,0,00,00,0000,0000
475,475,0,00,00,0000,0000
476,476,0,00,00,0000,0000
477,477,0,00,00,0000,0000
478,478,0,00,00,0000,0000
479,479,0,00,00,0000,0000
480,480,0,00,00,0000,0000
481,481,0,00,00,0000,0000
482,482,0,00,00,0000,0000
483,483,0,00,00,0000,0000
484,484,0,00,00,0000,0000
485,485,0,00,00,0000,0000
486,486,0,00,00,0000,0000
487,487,0,00,00,0000,0000
488,488,0,00,00,0000,0000
489,489,0,00,00,0000,0000
490,490,0,00,00,0000,0000
491,491,0,00,00,0000,0000
492,492,0,00,00,0000,0000
493,493,0,00,00,0000,0000
494,494,0,00,00,0000,0000
495,495,0,00,00,0000,0000
496,496,0,00,00,0000,0000
497,497,0,00,00,0000,0000
498,498,0,00,00,0000,0000
499,499,0,00,00,0000,0000
500,500,0,00,00,0000,0000
501,501,0,00,00,0000,0000
502,502,0,00,00,0000,0000
503,503,0,00,00,0000,0000
504,504,0,00,00,0000,0000
505,505,0,00,00,0000,0000
506,506,0,00,00,0000,0000
507,507,0,00,00,0000,0000
508,508,0,00,00,0000,0000
509,509,0,00,00,0000,0000
510,510,0,00,00,0000,0000
511,511,0,00,00,0000,0000
512,512,0,00,00,0000,0000
513,513,0,00,00,0000,0000
514,514,0,00,00,0000,0000
515,515,0,00,00,0000,0000
516,516,0,00,00,0000,0000
517,517,0,00,00,0000,0000
518,518,0,00,00,0000,0000
519,519,0,00,00,0000,0000
520,520,0,00,00,0000,0000
521,521,0,00,00,0000,0000
522,522,0,00,00,0000,0000
523,523,0,00,00,0000,0000
524,524,0,00,00,0000,0000
525,525,0,00,00,0000,0000
526,526,0,00,00,0000,0000
527,527,0,00,00,0000,0000
528,528,0,00,00,0000,0000
529,529,0,00,00,0000,0000
530,530,0,00,00,0000,0000
531,531,0,00,00,0000,0000
532,532,0,00,00,0000,0000
533,533,0,00,00,0000,0000
534,534,0,00,00,0000,0000
535,535,0,00,00,0000,0000
536,536,0,00,00,0000,0000
537,537,0,00,00,0000,0000
538,538,0,00,00,0000,0000
539,539,0,00,00,0000,0000
540,540,0,00,00,0000,0000
541,541,0,00,00,0000,0000
542,542,0,00,00,0000,0000
543,543,0,00,00,0000,0000
544,544,0,00,00,0000,0000
545,545,0,00,00,0000,0000
546,546,0,00,00,0000,0000
547,547,0,00,00,0000,0000
548,548,0,00,00,0000,0000
549,549,0,00,00,0000,0000
550,550,0,00,00,0000,0000
551,551,0,00,00,0000,0000
552,552,0,00,00,0000,0000
553,553,0,00,00,0000,0000
554,554,0,00,00,0000,0000
555,555,0,00,00,0000,0000
556,556,0,00,00,0000,0000
557,557,0,00,00,0000,0000
558,558,0,00,00,0000,0000
559,559,0,00,00,0000,0000
560,560,0,00,00,0000,0000
561,561,0,00,00,0000,0000
562,562,0,00,00,0000,0000
563,563,0,00,00,0000,0000
564,564,0,00,00,0000,0000
565,565,0,00,00,0000,0000
566,566,0,00,00,0000,0000
567,567,0,00,00,0000,0000
568,568,0,00,00,0000,0000
569,569,0,00,00,0000,0000
570,570,0,00,00,0000,0000
571,571,0,00,00,0000,0000
572,572,0,00,00,0000,0000
573,573,0,00,00,0000,0000
574,574,0,00,00,0000,0000
575,575,0,00,00,0000,0000
576,576,0,00,00,0000,0000
577,577,0,00,00,0000,0000
578,578,0,00,00,0000,0000
579,579,0,00,00,0000,0000
580,580,0,00,00,0000,0000
581,581,0,00,00,0000,0000
582,582,0,00,00,0000,0000
583,583,0,00,00,0000,0000
584,584,0,00,00,0000,0000
585,585,0,00,00,0000,0000
586,586,0,00,00,0000,0000
587,587,0,00,00,0000,0000
588,588,0,00,00,0000,0000
589,589,0,00,00,0000,0000
590,590,0,00,00,0000,0000
591,591,0,00,00,0000,0000
592,592,0,00,00,0000,0000
593,593,0,00,00,0000,0000
594,594,0,00,00,0000,0000
595,595,0,00,00,0000,0000
596,596,0,00,00,0000,0000
597,597,0,00,00,0000,0000
598,598,0,00,00,0000,0000
599,599,0,00,00,0000,0000
600,600,0,00,00,0000,0000
601,601,0,00,00,0000,0000
602,602,0,00,00,0000,0000
603,603,0,00,00,0000,0000
604,604,0,00,00,0000,0000
605,605,0,00,00,0000,0000
606,606,0,00,00,0000,0000
607,607,0,00,00,0000,0000
608,608,0,00,00,0000,0000
609,609,0,00,00,0000,0000
610,610,0,00,00,0000,0000
611,611,0,00,00,0000,0000
612,612,0,00,00,0000,0000
613,613,0,00,00,0000,0000
614,614,0,00,00,0000,0000
615,615,0,00,00,0000,0000
616,616,0,00,00,0000,0000
617,617,0,00,00,0000,0000
618,618,0,00,00,0000,0000
619,619,0,00,00,0000,0000
620,620,0,00,00,0000,0000
621,621,0,00,00,0000,0000
622,622,0,00,00,0000,0000
623,623,0,00,00,0000,0000
624,624,0,00,00,0000,0000
625,625,0,00,00,0000,0000
626,626,0,00,00,0000,0000
627,627,0,00,00,0000,0000
628,628,0,00,00,0000,0000
629,629,0,00,00,0000,0000
630,630,0,00,00,0000,0000
631,631,0,00,00,0000,0000
632,632,0,00,00,0000,0000
633,633,0,00,00,0000,0000
634,634,0,00,00,0000,0000
635,635,0,00,00,0000,0000
636,636,0,00,00,0000,0000
637,637,0,00,00,0000,0000
638,638,0,00,00,0000,0000
639,639,0,00,00,0000,0000
640,640,0,00,00,0000,0000
641,641,0,00,00,0000,0000
642,642,0,00,00,0000,0000
643,643,0,00,00,0000,0000
644,644,0,00,00,0000,0000
645,645,0,00,00,0000,0000
646,646,0,00,00,0000,0000
647,647,0,00,00,0000,0000
648,648,0,00,00,0000,0000
649,649,0,00,00,0000,0000
650,650,0,00,00,0000,0000
651,651,0,00,00,0000,0000
652,652,0,00,00,0000,0000
653,653,0,00,00,0000,0000
654,654,0,00,00,0000,0000
655,655,0,00,00,0000,0000
656,656,0,00,00,0000,0000
657,657,0,00,00,0000,0000
658,658,0,00,00,0000,0000
659,659,0,00,00,0000,0000
660,660,0,00,00,0000,0000
661,661,0,00,00,0000,0000
662,662,0,00,00,0000,0000
663,663,0,00,00,0000,0000
664,664,0,00,00,0000,0000
665,665,0,00,00,0000,0000
666,666,0,00,00,0000,0000
667,667,0,00,00,0000,0000
668,668,0,00,00,0000,0000
669,669,0,00,00,0000,0000
670,670,0,00,00,0000,0000
671,671,0,00,00,0000,0000
672,672,0,00,00,0000,0000
673,673,0,00,00,0000,0000
674,674,0,00,00,0000,0000
675,675,0,00,00,0000,0000
676,676,0,00,00,0000,0000
677,677,0,00,00,0000,0000
678,678,0,00,00,0000,0000
679,679,0,00,00,0000,0000
680,680,0,00,00,0000,0000
681,681,0,00,00,0000,0000
682,682,0,00,00,0000,0000
683,683,0,00,00,0000,0000
684,684,0,00,00,0000,0000
685,685,0,00,00,0000,0000
686,686,0,00,00,0000,0000
687,687,0,00,00,0000,0000
688,688,0,00,00,0000,0000
689,689,0,00,00,0000,0000
690,690,0,00,00,0000,0000
691,691,0,00,00,0000,0000
692,692,0,00,00,0000,0000
693,693,0,00,00,0000,0000
694,694,0,00,00,0000,0000
695,695,0,00,00,0000,0000
696,696,0,00,00,0000,0000
697,697,0,00,00,0000,0000
698,698,0,00,00,0000,0000
699,699,0,00,00,0000,0000
700,700,0,00,00,0000,0000
701,701,0,00,00,0000,0000
702,702,0,00,00,0000,0000
703,703,0,00,00,0000,0000
704,704,0,00,00,0000,0000
705,705,0,00,00,0000,0000
706,706,0,00,00,0000,0000
707,707,0,00,00,0000,0000
708,708,0,00,00,0000,0000
709,709,0,00,00,0000,0000
710,710,0,00,00,0000,0000
711,711,0,00,00,0000,0000
712,712,0,00,00,0000,0000
713,713,0,00,00,0000,0000
714,714,0,00,00,0000,0000
715,715,0,00,00,0000,0000
716,716,0,00,00,0000,0000
717,717,0,00,00,0000,0000
718,718,0,00,00,0000,0000
719,719,0,00,00,0000,0000
720,720,0,00,00,0000,0000
721,721,0,00,00,0000,0000
722,722,0,00,00,0000,0000
723,723,0,00,00,0000,0000
724,724,0,00,00,0000,0000
725,725,0,00,00,0000,0000
726,726,0,00,00,0000,0000
727,727,0,00,00,0000,0000
728,728,0,00,00,0000,0000
729,729,0,00,00,0000,0000
730,730,0,00,00,0000,0000
731,731,0,00,00,0000,0000
732,732,0,00,00,0000,0000
733,733,0,00,00,0000,0000
734,734,0,00,00,0000,0000
735,735,0,00,00,0000,0000
736,736,0,00,00,0000,0000
737,737,0,00,00,0000,0000
738,738,0,00,00,0000,0000
739,739,0,00,00,0000,0000
740,740,0,00,00,0000,0000
741,741,0,00,00,0000,0000
742,742,0,00,00,0000,0000
743,743,0,00,00,0000,0000
744,744,0,00,00,0000,0000
745,745,0,00,00,0000,0000
746,746,0,00,00,0000,0000
747,747,0,00,00,0000,0000
748,748,0,00,00,0000,0000
749,749,0,00,00,0000,0000
750,750,0,00,00,0000,0000
751,751,0,00,00,0000,0000
752,752,0,00,00,0000,0000
753,753,0,00,00,0000,0000
754,754,0,00,00,0000,0000
755,755,0,00,00,0000,0000
756,756,0,00,00,0000,0000
757,757,0,00,00,0000,0000
758,758,0,00,00,0000,0000
759,759,0,00,00,0000,0000
760,760,0,00,00,0000,0000
761,761,0,00,00,0000,0000
762,762,0,00,00,0000,0000
763,763,0,00,00,0000,0000
764,764,0,00,00,0000,0000
765,765,0,00,00,0000,0000
766,766,0,00,00,0000,0000
