Sample in Buffer,Sample in Window,TRIGGER,midterm_i/matrix_multiplication_0/inst/matrix_multiplication_v1_0_S00_AXI_inst/slv_reg2[31:0],midterm_i/matrix_multiplication_0/inst/matrix_multiplication_v1_0_S00_AXI_inst/slv_reg0[31:0],midterm_i/matrix_multiplication_0/inst/matrix_multiplication_v1_0_S00_AXI_inst/ansy[7:0],midterm_i/matrix_multiplication_0/inst/matrix_multiplication_v1_0_S00_AXI_inst/slv_reg3[31:0],midterm_i/matrix_multiplication_0/inst/matrix_multiplication_v1_0_S00_AXI_inst/P_next[4:0],midterm_i/matrix_multiplication_0/inst/matrix_multiplication_v1_0_S00_AXI_inst/slv_reg1[31:0],midterm_i/matrix_multiplication_0/inst/matrix_multiplication_v1_0_S00_AXI_inst/slv_reg4[31:0],midterm_i/matrix_multiplication_0/inst/matrix_multiplication_v1_0_S00_AXI_inst/ansx[7:0],midterm_i/matrix_multiplication_0/inst/matrix_multiplication_v1_0_S00_AXI_inst/slv_reg5[31:0],midterm_i/matrix_multiplication_0/inst/matrix_multiplication_v1_0_S00_AXI_inst/P[4:0]
0,0,1,00000001,00000001,0,0,01,00000002,0,0,00000000,00
1,1,0,00000001,00000001,0,0,04,00000002,0,0,00000000,01
2,2,0,00000001,00000001,50,0,05,00000002,0,133,00000000,04
3,3,0,00000001,00000001,50,389,00,00000002,306,133,00000001,05
4,4,0,00000001,00000001,0,389,01,00000002,306,0,00000001,00
5,5,0,00000001,00000001,0,389,04,00000002,306,0,00000001,01
6,6,0,00000001,00000001,50,389,05,00000002,306,133,00000001,04
7,7,0,00000001,00000001,50,389,00,00000002,306,133,00000001,05
8,8,0,00000001,00000001,0,389,01,00000002,306,0,00000001,00
9,9,0,00000001,00000001,0,389,04,00000002,306,0,00000001,01
10,10,0,00000001,00000001,50,389,05,00000002,306,133,00000001,04
11,11,0,00000001,00000001,50,389,00,00000002,306,133,00000001,05
12,12,0,00000001,00000001,0,389,01,00000002,306,0,00000001,00
13,13,0,00000001,00000001,0,389,04,00000002,306,0,00000001,01
14,14,0,00000001,00000001,50,389,05,00000002,306,133,00000001,04
15,15,0,00000001,00000001,50,389,00,00000002,306,133,00000001,05
16,16,0,00000001,00000001,0,389,01,00000002,306,0,00000001,00
17,17,0,00000001,00000001,0,389,04,00000002,306,0,00000001,01
18,18,0,00000001,00000001,50,389,05,00000002,306,133,00000001,04
19,19,0,00000001,00000001,50,389,00,00000002,306,133,00000001,05
20,20,0,00000001,00000001,0,389,01,00000002,306,0,00000001,00
21,21,0,00000001,00000001,0,389,04,00000002,306,0,00000001,01
22,22,0,00000001,00000001,50,389,05,00000002,306,133,00000001,04
23,23,0,00000001,00000001,50,389,00,00000002,306,133,00000001,05
24,24,0,00000001,00000001,0,389,01,00000002,306,0,00000001,00
25,25,0,00000001,00000001,0,389,04,00000002,306,0,00000001,01
26,26,0,00000001,00000001,50,389,05,00000002,306,133,00000001,04
27,27,0,00000001,00000001,50,389,00,00000002,306,133,00000001,05
28,28,0,00000001,00000001,0,389,01,00000002,306,0,00000001,00
29,29,0,00000001,00000001,0,389,04,00000002,306,0,00000001,01
30,30,0,00000001,00000001,50,389,05,00000002,306,133,00000001,04
31,31,0,00000001,00000001,50,389,00,00000002,306,133,00000001,05
32,32,0,00000001,00000001,0,389,01,00000002,306,0,00000001,00
33,33,0,00000001,00000001,0,389,04,00000002,306,0,00000001,01
34,34,0,00000001,00000001,50,389,05,00000002,306,133,00000001,04
35,35,0,00000001,00000001,50,389,00,00000002,306,133,00000001,05
36,36,0,00000001,00000001,0,389,01,00000002,306,0,00000001,00
37,37,0,00000001,00000001,0,389,04,00000002,306,0,00000001,01
38,38,0,00000001,00000001,50,389,05,00000002,306,133,00000001,04
39,39,0,00000001,00000001,50,389,00,00000002,306,133,00000001,05
40,40,0,00000001,00000001,0,389,01,00000002,306,0,00000001,00
41,41,0,00000001,00000001,0,389,04,00000002,306,0,00000001,01
42,42,0,00000001,00000001,50,389,05,00000002,306,133,00000001,04
43,43,0,00000001,00000001,50,389,00,00000002,306,133,00000001,05
44,44,0,00000001,00000001,0,389,01,00000002,306,0,00000001,00
45,45,0,00000001,00000001,0,389,04,00000002,306,0,00000001,01
46,46,0,00000001,00000001,50,389,05,00000002,306,133,00000001,04
47,47,0,00000001,00000001,50,389,00,00000002,306,133,00000001,05
48,48,0,00000001,00000001,0,389,01,00000002,306,0,00000001,00
49,49,0,00000001,00000001,0,389,04,00000002,306,0,00000001,01
50,50,0,00000001,00000001,50,389,05,00000002,306,133,00000001,04
51,51,0,00000001,00000001,50,389,00,00000002,306,133,00000001,05
52,52,0,00000001,00000001,0,389,01,00000002,306,0,00000001,00
53,53,0,00000001,00000001,0,389,04,00000002,306,0,00000001,01
54,54,0,00000001,00000001,50,389,05,00000002,306,133,00000001,04
55,55,0,00000001,00000001,50,389,00,00000002,306,133,00000001,05
56,56,0,00000001,00000001,0,389,01,00000002,306,0,00000001,00
57,57,0,00000001,00000001,0,389,04,00000002,306,0,00000001,01
58,58,0,00000001,00000001,50,389,05,00000002,306,133,00000001,04
59,59,0,00000001,00000001,50,389,00,00000002,306,133,00000001,05
60,60,0,00000001,00000001,0,389,01,00000002,306,0,00000001,00
61,61,0,00000001,00000001,0,389,04,00000002,306,0,00000001,01
62,62,0,00000001,00000001,50,389,05,00000002,306,133,00000001,04
63,63,0,00000001,00000001,50,389,00,00000002,306,133,00000001,05
64,64,0,00000001,00000001,0,389,01,00000002,306,0,00000001,00
65,65,0,00000001,00000001,0,389,04,00000002,306,0,00000001,01
66,66,0,00000001,00000001,50,389,05,00000002,306,133,00000001,04
67,67,0,00000001,00000001,50,389,00,00000002,306,133,00000001,05
68,68,0,00000001,00000001,0,389,01,00000002,306,0,00000001,00
69,69,0,00000001,00000001,0,389,04,00000002,306,0,00000001,01
70,70,0,00000001,00000001,50,389,05,00000002,306,133,00000001,04
71,71,0,00000001,00000001,50,389,00,00000002,306,133,00000001,05
72,72,0,00000001,00000001,0,389,01,00000002,306,0,00000001,00
73,73,0,00000001,00000001,0,389,04,00000002,306,0,00000001,01
74,74,0,00000001,00000001,50,389,05,00000002,306,133,00000001,04
75,75,0,00000001,00000001,50,389,00,00000002,306,133,00000001,05
76,76,0,00000001,00000001,0,389,01,00000002,306,0,00000001,00
77,77,0,00000001,00000001,0,389,04,00000002,306,0,00000001,01
78,78,0,00000001,00000001,50,389,05,00000002,306,133,00000001,04
79,79,0,00000001,00000001,50,389,00,00000002,306,133,00000001,05
80,80,0,00000001,00000001,0,389,01,00000002,306,0,00000001,00
81,81,0,00000001,00000001,0,389,04,00000002,306,0,00000001,01
82,82,0,00000001,00000001,50,389,05,00000002,306,133,00000001,04
83,83,0,00000001,00000001,50,389,00,00000002,306,133,00000001,05
84,84,0,00000001,00000001,0,389,01,00000002,306,0,00000001,00
85,85,0,00000001,00000001,0,389,04,00000002,306,0,00000001,01
86,86,0,00000001,00000001,50,389,05,00000002,306,133,00000001,04
87,87,0,00000001,00000001,50,389,00,00000002,306,133,00000001,05
88,88,0,00000001,00000001,0,389,01,00000002,306,0,00000001,00
89,89,0,00000001,00000001,0,389,04,00000002,306,0,00000001,01
90,90,0,00000001,00000001,50,389,05,00000002,306,133,00000001,04
91,91,0,00000001,00000001,50,389,00,00000002,306,133,00000001,05
92,92,0,00000001,00000001,0,389,01,00000002,306,0,00000001,00
93,93,0,00000001,00000001,0,389,04,00000002,306,0,00000001,01
94,94,0,00000001,00000001,50,389,05,00000002,306,133,00000001,04
95,95,0,00000001,00000001,50,389,00,00000002,306,133,00000001,05
96,96,0,00000001,00000001,0,389,01,00000002,306,0,00000001,00
97,97,0,00000001,00000001,0,389,04,00000002,306,0,00000001,01
98,98,0,00000001,00000001,50,389,05,00000002,306,133,00000001,04
99,99,0,00000001,00000001,50,389,00,00000002,306,133,00000001,05
100,100,0,00000001,00000001,0,389,01,00000002,306,0,00000001,00
101,101,0,00000001,00000001,0,389,04,00000002,306,0,00000001,01
102,102,0,00000001,00000001,50,389,05,00000002,306,133,00000001,04
103,103,0,00000001,00000001,50,389,00,00000002,306,133,00000001,05
104,104,0,00000001,00000001,0,389,01,00000002,306,0,00000001,00
105,105,0,00000001,00000001,0,389,04,00000002,306,0,00000001,01
106,106,0,00000001,00000001,50,389,05,00000002,306,133,00000001,04
107,107,0,00000001,00000001,50,389,00,00000002,306,133,00000001,05
108,108,0,00000001,00000001,0,389,01,00000002,306,0,00000001,00
109,109,0,00000001,00000001,0,389,04,00000002,306,0,00000001,01
110,110,0,00000001,00000001,50,389,05,00000002,306,133,00000001,04
111,111,0,00000001,00000001,50,389,00,00000002,306,133,00000001,05
112,112,0,00000001,00000001,0,389,01,00000002,306,0,00000001,00
113,113,0,00000001,00000001,0,389,04,00000002,306,0,00000001,01
114,114,0,00000001,00000001,50,389,05,00000002,306,133,00000001,04
115,115,0,00000001,00000001,50,389,00,00000002,306,133,00000001,05
116,116,0,00000001,00000001,0,389,01,00000002,306,0,00000001,00
117,117,0,00000001,00000001,0,389,04,00000002,306,0,00000001,01
118,118,0,00000001,00000001,50,389,05,00000002,306,133,00000001,04
119,119,0,00000001,00000001,50,389,00,00000002,306,133,00000001,05
120,120,0,00000001,00000001,0,389,01,00000002,306,0,00000001,00
121,121,0,00000001,00000001,0,389,04,00000002,306,0,00000001,01
122,122,0,00000001,00000001,50,389,05,00000002,306,133,00000001,04
123,123,0,00000001,00000001,50,389,00,00000002,306,133,00000001,05
124,124,0,00000001,00000001,0,389,01,00000002,306,0,00000001,00
125,125,0,00000001,00000001,0,389,04,00000002,306,0,00000001,01
126,126,0,00000001,00000001,50,389,05,00000002,306,133,00000001,04
127,127,0,00000001,00000001,50,389,00,00000002,306,133,00000001,05
128,128,0,00000001,00000001,0,389,01,00000002,306,0,00000001,00
129,129,0,00000001,00000001,0,389,04,00000002,306,0,00000001,01
130,130,0,00000001,00000001,50,389,05,00000002,306,133,00000001,04
131,131,0,00000001,00000001,50,389,00,00000002,306,133,00000001,05
132,132,0,00000001,00000001,0,389,01,00000002,306,0,00000001,00
133,133,0,00000001,00000001,0,389,04,00000002,306,0,00000001,01
134,134,0,00000001,00000001,50,389,05,00000002,306,133,00000001,04
135,135,0,00000001,00000001,50,389,00,00000002,306,133,00000001,05
136,136,0,00000001,00000001,0,389,01,00000002,306,0,00000001,00
137,137,0,00000001,00000001,0,389,04,00000002,306,0,00000001,01
138,138,0,00000001,00000001,50,389,05,00000002,306,133,00000001,04
139,139,0,00000001,00000001,50,389,00,00000002,306,133,00000001,05
140,140,0,00000001,00000001,0,389,01,00000002,306,0,00000001,00
141,141,0,00000001,00000001,0,389,04,00000002,306,0,00000001,01
142,142,0,00000001,00000001,50,389,05,00000002,306,133,00000001,04
143,143,0,00000001,00000001,50,389,00,00000002,306,133,00000001,05
144,144,0,00000001,00000001,0,389,01,00000002,306,0,00000001,00
145,145,0,00000001,00000001,0,389,04,00000002,306,0,00000001,01
146,146,0,00000001,00000001,50,389,05,00000002,306,133,00000001,04
147,147,0,00000001,00000001,50,389,00,00000002,306,133,00000001,05
148,148,0,00000001,00000001,0,389,01,00000002,306,0,00000001,00
149,149,0,00000001,00000001,0,389,04,00000002,306,0,00000001,01
150,150,0,00000001,00000001,50,389,05,00000002,306,133,00000001,04
151,151,0,00000001,00000001,50,389,00,00000002,306,133,00000001,05
152,152,0,00000001,00000001,0,389,01,00000002,306,0,00000001,00
153,153,0,00000001,00000001,0,389,04,00000002,306,0,00000001,01
154,154,0,00000001,00000001,50,389,05,00000002,306,133,00000001,04
155,155,0,00000001,00000001,50,389,00,00000002,306,133,00000001,05
156,156,0,00000001,00000001,0,389,01,00000002,306,0,00000001,00
157,157,0,00000001,00000001,0,389,04,00000002,306,0,00000001,01
158,158,0,00000001,00000001,50,389,05,00000002,306,133,00000001,04
159,159,0,00000001,00000001,50,389,00,00000002,306,133,00000001,05
160,160,0,00000001,00000001,0,389,01,00000002,306,0,00000001,00
161,161,0,00000001,00000001,0,389,04,00000002,306,0,00000001,01
162,162,0,00000001,00000001,50,389,05,00000002,306,133,00000001,04
163,163,0,00000001,00000001,50,389,00,00000002,306,133,00000001,05
164,164,0,00000001,00000001,0,389,01,00000002,306,0,00000001,00
165,165,0,00000001,00000001,0,389,04,00000002,306,0,00000001,01
166,166,0,00000001,00000001,50,389,05,00000002,306,133,00000001,04
167,167,0,00000001,00000001,50,389,00,00000002,306,133,00000001,05
168,168,0,00000001,00000001,0,389,01,00000002,306,0,00000001,00
169,169,0,00000001,00000001,0,389,04,00000002,306,0,00000001,01
170,170,0,00000001,00000001,50,389,05,00000002,306,133,00000001,04
171,171,0,00000001,00000001,50,389,00,00000002,306,133,00000001,05
172,172,0,00000001,00000001,0,389,01,00000002,306,0,00000001,00
173,173,0,00000001,00000001,0,389,04,00000002,306,0,00000001,01
174,174,0,00000001,00000001,50,389,05,00000002,306,133,00000001,04
175,175,0,00000001,00000001,50,389,00,00000002,306,133,00000001,05
176,176,0,00000001,00000001,0,389,01,00000002,306,0,00000001,00
177,177,0,00000001,00000001,0,389,04,00000002,306,0,00000001,01
178,178,0,00000001,00000001,50,389,05,00000002,306,133,00000001,04
179,179,0,00000001,00000001,50,389,00,00000002,306,133,00000001,05
180,180,0,00000001,00000001,0,389,01,00000002,306,0,00000001,00
181,181,0,00000001,00000001,0,389,04,00000002,306,0,00000001,01
182,182,0,00000001,00000001,50,389,05,00000002,306,133,00000001,04
183,183,0,00000001,00000001,50,389,00,00000002,306,133,00000001,05
184,184,0,00000001,00000001,0,389,01,00000002,306,0,00000001,00
185,185,0,00000001,00000001,0,389,04,00000002,306,0,00000001,01
186,186,0,00000001,00000001,50,389,05,00000002,306,133,00000001,04
187,187,0,00000001,00000001,50,389,00,00000002,306,133,00000001,05
188,188,0,00000001,00000001,0,389,01,00000002,306,0,00000001,00
189,189,0,00000001,00000001,0,389,04,00000002,306,0,00000001,01
190,190,0,00000001,00000001,50,389,05,00000002,306,133,00000001,04
191,191,0,00000001,00000001,50,389,00,00000002,306,133,00000001,05
192,192,0,00000001,00000001,0,389,01,00000002,306,0,00000001,00
193,193,0,00000001,00000001,0,389,04,00000002,306,0,00000001,01
194,194,0,00000001,00000001,50,389,05,00000002,306,133,00000001,04
195,195,0,00000001,00000001,50,389,00,00000002,306,133,00000001,05
196,196,0,00000001,00000001,0,389,01,00000002,306,0,00000001,00
197,197,0,00000001,00000001,0,389,04,00000002,306,0,00000001,01
198,198,0,00000001,00000001,50,389,05,00000002,306,133,00000001,04
199,199,0,00000001,00000001,50,389,00,00000002,306,133,00000001,05
200,200,0,00000001,00000001,0,389,01,00000002,306,0,00000001,00
201,201,0,00000001,00000001,0,389,04,00000002,306,0,00000001,01
202,202,0,00000001,00000001,50,389,05,00000002,306,133,00000001,04
203,203,0,00000001,00000001,50,389,00,00000002,306,133,00000001,05
204,204,0,00000001,00000001,0,389,01,00000002,306,0,00000001,00
205,205,0,00000001,00000001,0,389,04,00000002,306,0,00000001,01
206,206,0,00000001,00000001,50,389,05,00000002,306,133,00000001,04
207,207,0,00000001,00000001,50,389,00,00000002,306,133,00000001,05
208,208,0,00000001,00000001,0,389,01,00000002,306,0,00000001,00
209,209,0,00000001,00000001,0,389,04,00000002,306,0,00000001,01
210,210,0,00000001,00000001,50,389,05,00000002,306,133,00000001,04
211,211,0,00000001,00000001,50,389,00,00000002,306,133,00000001,05
212,212,0,00000001,00000001,0,389,01,00000002,306,0,00000001,00
213,213,0,00000001,00000001,0,389,04,00000002,306,0,00000001,01
214,214,0,00000001,00000001,50,389,05,00000002,306,133,00000001,04
215,215,0,00000001,00000001,50,389,00,00000002,306,133,00000001,05
216,216,0,00000001,00000001,0,389,01,00000002,306,0,00000001,00
217,217,0,00000001,00000001,0,389,04,00000002,306,0,00000001,01
218,218,0,00000001,00000001,50,389,05,00000002,306,133,00000001,04
219,219,0,00000001,00000001,50,389,00,00000002,306,133,00000001,05
220,220,0,00000001,00000001,0,389,01,00000002,306,0,00000001,00
221,221,0,00000001,00000001,0,389,04,00000002,306,0,00000001,01
222,222,0,00000001,00000001,50,389,05,00000002,306,133,00000001,04
223,223,0,00000001,00000001,50,389,00,00000002,306,133,00000001,05
224,224,0,00000001,00000001,0,389,01,00000002,306,0,00000001,00
225,225,0,00000001,00000001,0,389,04,00000002,306,0,00000001,01
226,226,0,00000001,00000001,50,389,05,00000002,306,133,00000001,04
227,227,0,00000001,00000001,50,389,00,00000002,306,133,00000001,05
228,228,0,00000001,00000001,0,389,01,00000002,306,0,00000001,00
229,229,0,00000001,00000001,0,389,04,00000002,306,0,00000001,01
230,230,0,00000001,00000001,50,389,05,00000002,306,133,00000001,04
231,231,0,00000001,00000001,50,389,00,00000002,306,133,00000001,05
232,232,0,00000001,00000001,0,389,01,00000002,306,0,00000001,00
233,233,0,00000001,00000001,0,389,04,00000002,306,0,00000001,01
234,234,0,00000001,00000001,50,389,05,00000002,306,133,00000001,04
235,235,0,00000001,00000001,50,389,00,00000002,306,133,00000001,05
236,236,0,00000001,00000001,0,389,01,00000002,306,0,00000001,00
237,237,0,00000001,00000001,0,389,04,00000002,306,0,00000001,01
238,238,0,00000001,00000001,50,389,05,00000002,306,133,00000001,04
239,239,0,00000001,00000001,50,389,00,00000002,306,133,00000001,05
240,240,0,00000001,00000001,0,389,01,00000002,306,0,00000001,00
241,241,0,00000001,00000001,0,389,04,00000002,306,0,00000001,01
242,242,0,00000001,00000001,50,389,05,00000002,306,133,00000001,04
243,243,0,00000001,00000001,50,389,00,00000002,306,133,00000001,05
244,244,0,00000001,00000001,0,389,01,00000002,306,0,00000001,00
245,245,0,00000001,00000001,0,389,04,00000002,306,0,00000001,01
246,246,0,00000001,00000001,50,389,05,00000002,306,133,00000001,04
247,247,0,00000001,00000001,50,389,00,00000002,306,133,00000001,05
248,248,0,00000001,00000001,0,389,01,00000002,306,0,00000001,00
249,249,0,00000001,00000001,0,389,04,00000002,306,0,00000001,01
250,250,0,00000001,00000001,50,389,05,00000002,306,133,00000001,04
251,251,0,00000001,00000001,50,389,00,00000002,306,133,00000001,05
252,252,0,00000001,00000001,0,389,01,00000002,306,0,00000001,00
253,253,0,00000001,00000001,0,389,04,00000002,306,0,00000001,01
254,254,0,00000001,00000001,50,389,05,00000002,306,133,00000001,04
255,255,0,00000001,00000001,50,389,00,00000002,306,133,00000001,05
256,256,0,00000001,00000001,0,389,01,00000002,306,0,00000001,00
257,257,0,00000001,00000001,0,389,04,00000002,306,0,00000001,01
258,258,0,00000001,00000001,50,389,05,00000002,306,133,00000001,04
259,259,0,00000001,00000001,50,389,00,00000002,306,133,00000001,05
260,260,0,00000001,00000001,0,389,01,00000002,306,0,00000001,00
261,261,0,00000001,00000001,0,389,04,00000002,306,0,00000001,01
262,262,0,00000001,00000001,50,389,05,00000002,306,133,00000001,04
263,263,0,00000001,00000001,50,389,00,00000002,306,133,00000001,05
264,264,0,00000001,00000001,0,389,01,00000002,306,0,00000001,00
265,265,0,00000001,00000001,0,389,04,00000002,306,0,00000001,01
266,266,0,00000001,00000001,50,389,05,00000002,306,133,00000001,04
267,267,0,00000001,00000001,50,389,00,00000002,306,133,00000001,05
268,268,0,00000001,00000001,0,389,01,00000002,306,0,00000001,00
269,269,0,00000001,00000001,0,389,04,00000002,306,0,00000001,01
270,270,0,00000001,00000001,50,389,05,00000002,306,133,00000001,04
271,271,0,00000001,00000001,50,389,00,00000002,306,133,00000001,05
272,272,0,00000001,00000001,0,389,01,00000002,306,0,00000001,00
273,273,0,00000001,00000001,0,389,04,00000002,306,0,00000001,01
274,274,0,00000001,00000001,50,389,05,00000002,306,133,00000001,04
275,275,0,00000001,00000001,50,389,00,00000002,306,133,00000001,05
276,276,0,00000001,00000001,0,389,01,00000002,306,0,00000001,00
277,277,0,00000001,00000001,0,389,04,00000002,306,0,00000001,01
278,278,0,00000001,00000001,50,389,05,00000002,306,133,00000001,04
279,279,0,00000001,00000001,50,389,00,00000002,306,133,00000001,05
280,280,0,00000001,00000001,0,389,01,00000002,306,0,00000001,00
281,281,0,00000001,00000001,0,389,04,00000002,306,0,00000001,01
282,282,0,00000001,00000001,50,389,05,00000002,306,133,00000001,04
283,283,0,00000001,00000001,50,389,00,00000002,306,133,00000001,05
284,284,0,00000001,00000001,0,389,01,00000002,306,0,00000001,00
285,285,0,00000001,00000001,0,389,04,00000002,306,0,00000001,01
286,286,0,00000001,00000001,50,389,05,00000002,306,133,00000001,04
287,287,0,00000001,00000001,50,389,00,00000002,306,133,00000001,05
288,288,0,00000001,00000001,0,389,01,00000002,306,0,00000001,00
289,289,0,00000001,00000001,0,389,04,00000002,306,0,00000001,01
290,290,0,00000001,00000001,50,389,05,00000002,306,133,00000001,04
291,291,0,00000001,00000001,50,389,00,00000002,306,133,00000001,05
292,292,0,00000001,00000001,0,389,01,00000002,306,0,00000001,00
293,293,0,00000001,00000001,0,389,04,00000002,306,0,00000001,01
